T2370 000:007.400   SEGGER J-Link V8.80 Log File
T2370 000:007.559   DLL Compiled: Oct 22 2025 11:56:02
T2370 000:007.569   Logging started @ 2026-01-11 12:12
T2370 000:007.578   Process: C:\Keil_v5\UV4\UV4.exe
T2370 000:007.593 - 7.586ms 
T2370 000:007.609 JLINK_SetWarnOutHandler(...)
T2370 000:007.619 - 0.012ms 
T2370 000:007.632 JLINK_OpenEx(...)
T2370 000:014.329   Firmware: J-Link OB-STM32F072-128KB-CortexM compiled Dec 10 2025 15:52:22
T2370 000:017.401   Firmware: J-Link OB-STM32F072-128KB-CortexM compiled Dec 10 2025 15:52:22
T2370 000:017.644   Decompressing FW timestamp took 176 us
T2370 000:038.872   Hardware: V1.00
T2370 000:038.902   S/N: 671030619
T2370 000:038.918   OEM: SEGGER
T2370 000:038.930   Feature(s): GDB, FlashBP, FlashDL, JFlash, RDI
T2370 000:041.340   Bootloader: (FW returned invalid version)
T2370 000:042.715   USB speed mode: Full speed (12 MBit/s)
T2370 000:043.579   TELNET listener socket opened on port 19021
T2370 000:043.828   WEBSRV WEBSRV_Init(): Starting webserver thread(s)
T2370 000:044.026   WEBSRV Webserver running on local port 19080
T2370 000:044.188   Looking for J-Link GUI Server exe at: C:\Keil_v5\ARM\Segger\JLinkGUIServer.exe
T2370 000:044.351   Looking for J-Link GUI Server exe at: C:\Program Files\SEGGER\JLink\JLinkGUIServer.exe
T2370 000:044.414   Forking J-Link GUI Server: C:\Program Files\SEGGER\JLink\JLinkGUIServer.exe
T2370 000:071.752   J-Link GUI Server info: "J-Link GUI server V8.80 "
T2370 000:077.428 - 69.787ms returns "O.K."
T2370 000:077.474 JLINK_GetEmuCaps()
T2370 000:077.490 - 0.011ms returns 0xB8EA5A33
T2370 000:077.505 JLINK_TIF_GetAvailable(...)
T2370 000:078.032 - 0.526ms 
T2370 000:078.064 JLINK_SetErrorOutHandler(...)
T2370 000:078.078 - 0.014ms 
T2370 000:078.116 JLINK_ExecCommand("ProjectFile = "D:\RF_projects\LoRa-platform\FW\mesh_sniffer\FW_RA08\JLinkSettings.ini"", ...). 
T2370 000:105.335   Ref file found at: C:\Keil_v5\ARM\Segger\JLinkDevices.ref
T2370 000:105.527   REF file references invalid XML file: C:\Program Files\SEGGER\JLink\JLinkDevices.xml
T2370 000:107.084 - 28.969ms returns 0x00
T2370 000:114.306 JLINK_ExecCommand("Device = ARMCM4", ...). 
T2370 000:119.939   Device "CORTEX-M4" selected.
T2370 000:120.490 - 6.149ms returns 0x00
T2370 000:120.514 JLINK_ExecCommand("DisableConnectionTimeout", ...). 
T2370 000:120.537   ERROR: Unknown command
T2370 000:120.551 - 0.024ms returns 0x01
T2370 000:120.562 JLINK_GetHardwareVersion()
T2370 000:120.571 - 0.009ms returns 10000
T2370 000:120.590 JLINK_GetDLLVersion()
T2370 000:120.598 - 0.007ms returns 88000
T2370 000:120.610 JLINK_GetOEMString(...)
T2370 000:120.624 JLINK_GetFirmwareString(...)
T2370 000:120.633 - 0.011ms 
T2370 000:133.729 JLINK_GetDLLVersion()
T2370 000:133.763 - 0.034ms returns 88000
T2370 000:133.774 JLINK_GetCompileDateTime()
T2370 000:133.783 - 0.008ms 
T2370 000:137.890 JLINK_GetFirmwareString(...)
T2370 000:137.907 - 0.017ms 
T2370 000:142.273 JLINK_GetHardwareVersion()
T2370 000:142.296 - 0.023ms returns 10000
T2370 000:146.353 JLINK_GetSN()
T2370 000:146.370 - 0.017ms returns 671030619
T2370 000:150.738 JLINK_GetOEMString(...)
T2370 000:158.961 JLINK_TIF_Select(JLINKARM_TIF_SWD)
T2370 000:161.170 - 2.218ms returns 0x00
T2370 000:161.190 JLINK_HasError()
T2370 000:161.207 JLINK_SetSpeed(2000)
T2370 000:161.794 - 0.586ms 
T2370 000:161.813 JLINK_GetId()
T2370 000:168.027   Found SW-DP with ID 0x2BA01477
T2370 000:178.826   DPIDR: 0x2BA01477
T2370 000:183.221   CoreSight SoC-400 or earlier
T2370 000:187.357   Scanning AP map to find all available APs
T2370 000:193.480   AP[1]: Stopped AP scan as end of AP map has been reached
T2370 000:197.798   AP[0]: AHB-AP (IDR: 0x24770011, ADDR: 0x00000000)
T2370 000:202.197   Iterating through AP map to find AHB-AP to use
T2370 000:208.923   AP[0]: Core found
T2370 000:213.393   AP[0]: AHB-AP ROM base: 0xE00FF000
T2370 000:218.954   CPUID register: 0x410FC241. Implementer code: 0x41 (ARM)
T2370 000:223.517   Found Cortex-M4 r0p1, Little endian.
T2370 000:225.046   -- Max. mem block: 0x00001AE8
T2370 000:226.341   CPU_ReadMem(4 bytes @ 0xE000EDF0)
T2370 000:227.455   CPU_WriteMem(4 bytes @ 0xE000EDF0)
T2370 000:228.302   CPU_ReadMem(4 bytes @ 0xE0002000)
T2370 000:233.626   FPUnit: 6 code (BP) slots and 2 literal slots
T2370 000:233.662   CPU_ReadMem(4 bytes @ 0xE000EDFC)
T2370 000:234.823   CPU_WriteMem(4 bytes @ 0xE000EDFC)
T2370 000:235.799   CPU_ReadMem(4 bytes @ 0xE0001000)
T2370 000:236.645   CPU_WriteMem(4 bytes @ 0xE0001000)
T2370 000:237.525   CPU_ReadMem(4 bytes @ 0xE000ED88)
T2370 000:238.458   CPU_WriteMem(4 bytes @ 0xE000ED88)
T2370 000:239.336   CPU_ReadMem(4 bytes @ 0xE000ED88)
T2370 000:240.140   CPU_WriteMem(4 bytes @ 0xE000ED88)
T2370 000:245.579   CoreSight components:
T2370 000:249.734   ROMTbl[0] @ E00FF000
T2370 000:249.764   CPU_ReadMem(64 bytes @ 0xE00FF000)
T2370 000:251.303   CPU_ReadMem(32 bytes @ 0xE000EFE0)
T2370 000:256.592   [0][0]: E000E000 CID B105E00D PID 000BB00C SCS-M7
T2370 000:256.618   CPU_ReadMem(32 bytes @ 0xE0001FE0)
T2370 000:262.168   [0][1]: E0001000 CID B105E00D PID 003BB002 DWT
T2370 000:262.195   CPU_ReadMem(32 bytes @ 0xE0002FE0)
T2370 000:267.521   [0][2]: E0002000 CID B105E00D PID 002BB003 FPB
T2370 000:267.554   CPU_ReadMem(32 bytes @ 0xE0000FE0)
T2370 000:272.779   [0][3]: E0000000 CID B105E00D PID 003BB001 ITM
T2370 000:272.806   CPU_ReadMem(32 bytes @ 0xE0040FE0)
T2370 000:278.207   [0][4]: E0040000 CID B105900D PID 000BB9A1 TPIU
T2370 000:279.047 - 117.232ms returns 0x2BA01477
T2370 000:279.079 JLINK_GetDLLVersion()
T2370 000:279.089 - 0.010ms returns 88000
T2370 000:279.100 JLINK_CORE_GetFound()
T2370 000:279.109 - 0.008ms returns 0xE0000FF
T2370 000:279.180 JLINK_GetDebugInfo(0x100 = JLINKARM_ROM_TABLE_ADDR_INDEX)
T2370 000:279.194   Value=0xE00FF000
T2370 000:279.206 - 0.026ms returns 0
T2370 000:283.908 JLINK_GetDebugInfo(0x100 = JLINKARM_ROM_TABLE_ADDR_INDEX)
T2370 000:283.935   Value=0xE00FF000
T2370 000:283.949 - 0.041ms returns 0
T2370 000:283.960 JLINK_GetDebugInfo(0x101 = JLINKARM_DEBUG_INFO_ETM_ADDR_INDEX)
T2370 000:283.969   Value=0x00000000
T2370 000:283.980 - 0.020ms returns 0
T2370 000:283.992 JLINK_ReadMemEx(0xE0041FF0, 0x10 Bytes, Flags = 0x02000004)
T2370 000:284.034   CPU_ReadMem(16 bytes @ 0xE0041FF0)
T2370 000:285.060   Data:  00 00 00 00 00 00 00 00 00 00 00 00 00 00 00 00
T2370 000:285.081 - 1.088ms returns 16 (0x10)
T2370 000:285.095 JLINK_GetDebugInfo(0x102 = JLINKARM_DEBUG_INFO_MTB_ADDR_INDEX)
T2370 000:285.104   Value=0x00000000
T2370 000:285.117 - 0.022ms returns 0
T2370 000:285.127 JLINK_GetDebugInfo(0x103 = JLINKARM_DEBUG_INFO_TPIU_ADDR_INDEX)
T2370 000:285.136   Value=0xE0040000
T2370 000:285.147 - 0.020ms returns 0
T2370 000:285.158 JLINK_GetDebugInfo(0x104 = JLINKARM_DEBUG_INFO_ITM_ADDR_INDEX)
T2370 000:285.166   Value=0xE0000000
T2370 000:285.178 - 0.020ms returns 0
T2370 000:285.188 JLINK_GetDebugInfo(0x105 = JLINKARM_DEBUG_INFO_DWT_ADDR_INDEX)
T2370 000:285.197   Value=0xE0001000
T2370 000:285.208 - 0.020ms returns 0
T2370 000:285.218 JLINK_GetDebugInfo(0x106 = JLINKARM_DEBUG_INFO_FPB_ADDR_INDEX)
T2370 000:285.227   Value=0xE0002000
T2370 000:285.238 - 0.020ms returns 0
T2370 000:285.248 JLINK_GetDebugInfo(0x107 = JLINKARM_DEBUG_INFO_NVIC_ADDR_INDEX)
T2370 000:285.257   Value=0xE000E000
T2370 000:285.269 - 0.020ms returns 0
T2370 000:285.279 JLINK_GetDebugInfo(0x10C = JLINKARM_DEBUG_INFO_DBG_ADDR_INDEX)
T2370 000:285.287   Value=0xE000EDF0
T2370 000:285.299 - 0.020ms returns 0
T2370 000:285.309 JLINK_GetDebugInfo(0x01 = Unknown)
T2370 000:285.318   Value=0x00000001
T2370 000:285.329 - 0.020ms returns 0
T2370 000:285.340 JLINK_ReadMemU32(0xE000ED00, 0x1 Items)
T2370 000:285.354   CPU_ReadMem(4 bytes @ 0xE000ED00)
T2370 000:286.301   Data:  41 C2 0F 41
T2370 000:286.325   Debug reg: CPUID
T2370 000:286.338 - 0.997ms returns 1 (0x1)
T2370 000:286.352 JLINK_GetDebugInfo(0x10F = JLINKARM_DEBUG_INFO_HAS_CORTEX_M_SECURITY_EXT_INDEX)
T2370 000:286.361   Value=0x00000000
T2370 000:286.373 - 0.021ms returns 0
T2370 000:286.383 JLINK_HasError()
T2370 000:286.401 JLINK_SetResetType(JLINKARM_CM3_RESET_TYPE_CORE)
T2370 000:286.413 - 0.012ms returns JLINKARM_CM3_RESET_TYPE_NORMAL
T2370 000:286.423 JLINK_Reset()
T2370 000:286.441   JLINK_GetResetTypeDesc
T2370 000:286.454   - 0.013ms 
T2370 000:290.616   Reset type: CORE (https://kb.segger.com/J-Link_Reset_Strategies)
T2370 000:290.651   CPU is running
T2370 000:290.667   CPU_WriteMem(4 bytes @ 0xE000EDF0)
T2370 000:291.800   CPU is running
T2370 000:291.820   CPU_WriteMem(4 bytes @ 0xE000EDFC)
T2370 000:296.830   Reset: Halt core after reset via DEMCR.VC_CORERESET.
T2370 000:302.024   Reset: Reset device via AIRCR.VECTRESET.
T2370 000:302.064   CPU is running
T2370 000:302.082   CPU_WriteMem(4 bytes @ 0xE000ED0C)
T2370 000:304.400   CPU_ReadMem(4 bytes @ 0xE000EDF0)
T2370 000:305.315   CPU_ReadMem(4 bytes @ 0xE000EDF0)
T2370 000:306.299   CPU is running
T2370 000:306.320   CPU_WriteMem(4 bytes @ 0xE000EDF0)
T2370 000:307.174   CPU is running
T2370 000:307.194   CPU_WriteMem(4 bytes @ 0xE000EDFC)
T2370 000:314.452   CPU_ReadMem(4 bytes @ 0xE000EDF0)
T2370 000:320.701   CPU_WriteMem(4 bytes @ 0xE0002000)
T2370 000:321.549   CPU_ReadMem(4 bytes @ 0xE000EDFC)
T2370 000:322.436   CPU_ReadMem(4 bytes @ 0xE0001000)
T2370 000:323.306 - 36.881ms 
T2370 000:323.339 JLINK_Halt()
T2370 000:323.350 - 0.010ms returns 0x00
T2370 000:323.361 JLINK_ReadMemU32(0xE000EDF0, 0x1 Items)
T2370 000:323.377   CPU_ReadMem(4 bytes @ 0xE000EDF0)
T2370 000:324.298   Data:  03 00 03 00
T2370 000:324.316   Debug reg: DHCSR
T2370 000:324.329 - 0.967ms returns 1 (0x1)
T2370 000:324.353 JLINK_WriteU32(0xE000EDF0, 0xA05F0003)
T2370 000:324.363   Debug reg: DHCSR
T2370 000:324.733   CPU_WriteMem(4 bytes @ 0xE000EDF0)
T2370 000:325.799 - 1.447ms returns 0 (0x00000000)
T2370 000:325.820 JLINK_WriteU32(0xE000EDFC, 0x01000000)
T2370 000:325.830   Debug reg: DEMCR
T2370 000:325.848   CPU_WriteMem(4 bytes @ 0xE000EDFC)
T2370 000:326.798 - 0.977ms returns 0 (0x00000000)
T2370 000:344.088 JLINK_GetHWStatus(...)
T2370 000:344.858 - 0.769ms returns 0
T2370 000:358.064 JLINK_GetNumBPUnits(Type = 0xFFFFFF00)
T2370 000:358.097 - 0.033ms returns 0x06
T2370 000:358.109 JLINK_GetNumBPUnits(Type = 0xF0)
T2370 000:358.118 - 0.009ms returns 0x2000
T2370 000:358.128 JLINK_GetNumWPUnits()
T2370 000:358.137 - 0.008ms returns 4
T2370 000:372.368 JLINK_GetSpeed()
T2370 000:372.410 - 0.041ms returns 2000
T2370 000:381.381 JLINK_ReadMemU32(0xE000E004, 0x1 Items)
T2370 000:381.424   CPU_ReadMem(4 bytes @ 0xE000E004)
T2370 000:382.481   Data:  01 00 00 00
T2370 000:382.513 - 1.132ms returns 1 (0x1)
T2370 000:382.532 JLINK_ReadMemU32(0xE000E004, 0x1 Items)
T2370 000:382.549   CPU_ReadMem(4 bytes @ 0xE000E004)
T2370 000:383.729   Data:  01 00 00 00
T2370 000:383.754 - 1.221ms returns 1 (0x1)
T2370 000:383.772 JLINK_WriteMemEx(0xE0001000, 0x0000001C Bytes, Flags = 0x02000004)
T2370 000:383.784   Data:  01 00 00 00 00 00 00 00 00 00 00 00 00 00 00 00 ...
T2370 000:383.807   CPU_WriteMem(28 bytes @ 0xE0001000)
T2370 000:385.265 - 1.493ms returns 0x1C
T2370 000:385.291 JLINK_Halt()
T2370 000:385.305 - 0.013ms returns 0x00
T2370 000:385.319 JLINK_IsHalted()
T2370 000:385.330 - 0.010ms returns TRUE
T2370 000:390.248 JLINK_WriteMem(0x20000000, 0x10C Bytes, ...)
T2370 000:390.264   Data:  00 BE 0A E0 0D 78 2D 06 68 40 08 24 40 00 00 D3 ...
T2370 000:390.564   CPU_WriteMem(268 bytes @ 0x20000000)
T2370 000:394.151 - 3.903ms returns 0x10C
T2370 000:394.217 JLINK_HasError()
T2370 000:394.243 JLINK_WriteReg(R0, 0x08000000)
T2370 000:394.256 - 0.023ms returns 0
T2370 000:394.267 JLINK_WriteReg(R1, 0x00B71B00)
T2370 000:394.276 - 0.009ms returns 0
T2370 000:394.287 JLINK_WriteReg(R2, 0x00000001)
T2370 000:394.296 - 0.008ms returns 0
T2370 000:394.306 JLINK_WriteReg(R3, 0x00000000)
T2370 000:394.315 - 0.009ms returns 0
T2370 000:394.326 JLINK_WriteReg(R4, 0x00000000)
T2370 000:394.335 - 0.009ms returns 0
T2370 000:394.345 JLINK_WriteReg(R5, 0x00000000)
T2370 000:394.354 - 0.008ms returns 0
T2370 000:394.364 JLINK_WriteReg(R6, 0x00000000)
T2370 000:394.385 - 0.020ms returns 0
T2370 000:394.396 JLINK_WriteReg(R7, 0x00000000)
T2370 000:394.405 - 0.009ms returns 0
T2370 000:394.419 JLINK_WriteReg(R8, 0x00000000)
T2370 000:394.428 - 0.013ms returns 0
T2370 000:394.439 JLINK_WriteReg(R9, 0x20000108)
T2370 000:394.448 - 0.009ms returns 0
T2370 000:394.459 JLINK_WriteReg(R10, 0x00000000)
T2370 000:394.468 - 0.009ms returns 0
T2370 000:394.478 JLINK_WriteReg(R11, 0x00000000)
T2370 000:394.487 - 0.009ms returns 0
T2370 000:394.498 JLINK_WriteReg(R12, 0x00000000)
T2370 000:394.507 - 0.008ms returns 0
T2370 000:394.517 JLINK_WriteReg(R13 (SP), 0x20002000)
T2370 000:394.527 - 0.010ms returns 0
T2370 000:394.538 JLINK_WriteReg(R14, 0x20000001)
T2370 000:394.547 - 0.009ms returns 0
T2370 000:394.560 JLINK_WriteReg(R15 (PC), 0x20000038)
T2370 000:394.570 - 0.012ms returns 0
T2370 000:394.581 JLINK_WriteReg(XPSR, 0x01000000)
T2370 000:394.590 - 0.009ms returns 0
T2370 000:394.600 JLINK_WriteReg(MSP, 0x20002000)
T2370 000:394.609 - 0.008ms returns 0
T2370 000:394.619 JLINK_WriteReg(PSP, 0x20002000)
T2370 000:394.628 - 0.009ms returns 0
T2370 000:394.639 JLINK_WriteReg(CFBP, 0x00000000)
T2370 000:394.648 - 0.008ms returns 0
T2370 000:394.659 JLINK_SetBPEx(Addr = 0x20000000, Type = 0xFFFFFFF2)
T2370 000:394.673   CPU_ReadMem(4 bytes @ 0x20000000)
T2370 000:395.773   CPU_WriteMem(4 bytes @ 0x20000000)
T2370 000:396.870   CPU_ReadMem(4 bytes @ 0x20000000)
T2370 000:398.134   CPU_WriteMem(4 bytes @ 0x20000000)
T2370 000:399.195   CPU_ReadMem(2 bytes @ 0x20000000)
T2370 000:400.091 - 5.431ms returns 0x00000001
T2370 000:400.110 JLINK_Go()
T2370 000:400.132   CPU_WriteMem(2 bytes @ 0x20000000)
T2370 000:401.317   CPU_ReadMem(4 bytes @ 0xE0001000)
T2370 000:402.171   CPU_WriteMem(4 bytes @ 0xE0002008)
T2370 000:402.191   CPU_WriteMem(4 bytes @ 0xE000200C)
T2370 000:402.204   CPU_WriteMem(4 bytes @ 0xE0002010)
T2370 000:402.217   CPU_WriteMem(4 bytes @ 0xE0002014)
T2370 000:402.230   CPU_WriteMem(4 bytes @ 0xE0002018)
T2370 000:402.243   CPU_WriteMem(4 bytes @ 0xE000201C)
T2370 000:405.210   CPU_WriteMem(4 bytes @ 0xE0001004)
T2370 000:417.912   Memory map 'after startup completion point' is active
T2370 000:417.944 - 17.832ms 
T2370 000:417.974 JLINK_IsHalted()
T2370 000:423.443   CPU_ReadMem(2 bytes @ 0x20000000)
T2370 000:424.643 - 6.668ms returns TRUE
T2370 000:424.678 JLINK_ReadReg(R15 (PC))
T2370 000:424.695 - 0.016ms returns 0x20000000
T2370 000:424.707 JLINK_ClrBPEx(BPHandle = 0x00000001)
T2370 000:424.717 - 0.009ms returns 0x00
T2370 000:424.731 JLINK_ReadReg(R0)
T2370 000:424.741 - 0.009ms returns 0x00000000
T2370 000:425.184 JLINK_HasError()
T2370 000:425.203 JLINK_WriteReg(R0, 0x08000000)
T2370 000:425.215 - 0.011ms returns 0
T2370 000:425.226 JLINK_WriteReg(R1, 0x00001000)
T2370 000:425.235 - 0.009ms returns 0
T2370 000:425.246 JLINK_WriteReg(R2, 0x000000FF)
T2370 000:425.255 - 0.009ms returns 0
T2370 000:425.266 JLINK_WriteReg(R3, 0x00000000)
T2370 000:425.275 - 0.009ms returns 0
T2370 000:425.285 JLINK_WriteReg(R4, 0x00000000)
T2370 000:425.294 - 0.008ms returns 0
T2370 000:425.305 JLINK_WriteReg(R5, 0x00000000)
T2370 000:425.314 - 0.009ms returns 0
T2370 000:425.324 JLINK_WriteReg(R6, 0x00000000)
T2370 000:425.333 - 0.009ms returns 0
T2370 000:425.344 JLINK_WriteReg(R7, 0x00000000)
T2370 000:425.353 - 0.009ms returns 0
T2370 000:425.364 JLINK_WriteReg(R8, 0x00000000)
T2370 000:425.378 - 0.014ms returns 0
T2370 000:425.389 JLINK_WriteReg(R9, 0x20000108)
T2370 000:425.399 - 0.009ms returns 0
T2370 000:425.409 JLINK_WriteReg(R10, 0x00000000)
T2370 000:425.418 - 0.009ms returns 0
T2370 000:425.429 JLINK_WriteReg(R11, 0x00000000)
T2370 000:425.438 - 0.009ms returns 0
T2370 000:425.449 JLINK_WriteReg(R12, 0x00000000)
T2370 000:425.458 - 0.009ms returns 0
T2370 000:425.469 JLINK_WriteReg(R13 (SP), 0x20002000)
T2370 000:425.478 - 0.009ms returns 0
T2370 000:425.489 JLINK_WriteReg(R14, 0x20000001)
T2370 000:425.498 - 0.009ms returns 0
T2370 000:425.508 JLINK_WriteReg(R15 (PC), 0x20000020)
T2370 000:425.616 - 0.107ms returns 0
T2370 000:425.628 JLINK_WriteReg(XPSR, 0x01000000)
T2370 000:425.637 - 0.009ms returns 0
T2370 000:425.647 JLINK_WriteReg(MSP, 0x20002000)
T2370 000:425.656 - 0.009ms returns 0
T2370 000:425.666 JLINK_WriteReg(PSP, 0x20002000)
T2370 000:425.676 - 0.009ms returns 0
T2370 000:425.686 JLINK_WriteReg(CFBP, 0x00000000)
T2370 000:425.695 - 0.008ms returns 0
T2370 000:425.706 JLINK_SetBPEx(Addr = 0x20000000, Type = 0xFFFFFFF2)
T2370 000:425.716 - 0.010ms returns 0x00000002
T2370 000:425.726 JLINK_Go()
T2370 000:425.743   CPU_ReadMem(4 bytes @ 0xE0001000)
T2370 000:432.600 - 6.873ms 
T2370 000:432.629 JLINK_IsHalted()
T2370 000:438.518   CPU_ReadMem(2 bytes @ 0x20000000)
T2370 000:439.609 - 6.979ms returns TRUE
T2370 000:439.638 JLINK_ReadReg(R15 (PC))
T2370 000:439.654 - 0.015ms returns 0x20000000
T2370 000:439.666 JLINK_ClrBPEx(BPHandle = 0x00000002)
T2370 000:439.676 - 0.009ms returns 0x00
T2370 000:439.686 JLINK_ReadReg(R0)
T2370 000:439.696 - 0.009ms returns 0x00000001
T2370 000:439.707 JLINK_HasError()
T2370 000:439.718 JLINK_WriteReg(R0, 0x08000000)
T2370 000:439.728 - 0.009ms returns 0
T2370 000:439.738 JLINK_WriteReg(R1, 0x00001000)
T2370 000:439.747 - 0.009ms returns 0
T2370 000:439.758 JLINK_WriteReg(R2, 0x000000FF)
T2370 000:439.767 - 0.009ms returns 0
T2370 000:439.778 JLINK_WriteReg(R3, 0x00000000)
T2370 000:439.787 - 0.009ms returns 0
T2370 000:439.797 JLINK_WriteReg(R4, 0x00000000)
T2370 000:439.807 - 0.009ms returns 0
T2370 000:439.817 JLINK_WriteReg(R5, 0x00000000)
T2370 000:439.826 - 0.009ms returns 0
T2370 000:439.837 JLINK_WriteReg(R6, 0x00000000)
T2370 000:439.846 - 0.009ms returns 0
T2370 000:439.857 JLINK_WriteReg(R7, 0x00000000)
T2370 000:439.866 - 0.009ms returns 0
T2370 000:439.876 JLINK_WriteReg(R8, 0x00000000)
T2370 000:439.885 - 0.009ms returns 0
T2370 000:439.896 JLINK_WriteReg(R9, 0x20000108)
T2370 000:439.905 - 0.009ms returns 0
T2370 000:439.915 JLINK_WriteReg(R10, 0x00000000)
T2370 000:439.924 - 0.009ms returns 0
T2370 000:439.935 JLINK_WriteReg(R11, 0x00000000)
T2370 000:439.944 - 0.009ms returns 0
T2370 000:439.955 JLINK_WriteReg(R12, 0x00000000)
T2370 000:439.964 - 0.009ms returns 0
T2370 000:439.975 JLINK_WriteReg(R13 (SP), 0x20002000)
T2370 000:439.984 - 0.009ms returns 0
T2370 000:439.994 JLINK_WriteReg(R14, 0x20000001)
T2370 000:440.004 - 0.009ms returns 0
T2370 000:440.014 JLINK_WriteReg(R15 (PC), 0x2000003C)
T2370 000:440.023 - 0.009ms returns 0
T2370 000:440.034 JLINK_WriteReg(XPSR, 0x01000000)
T2370 000:440.043 - 0.009ms returns 0
T2370 000:440.053 JLINK_WriteReg(MSP, 0x20002000)
T2370 000:440.062 - 0.009ms returns 0
T2370 000:440.072 JLINK_WriteReg(PSP, 0x20002000)
T2370 000:440.082 - 0.009ms returns 0
T2370 000:440.093 JLINK_WriteReg(CFBP, 0x00000000)
T2370 000:440.102 - 0.009ms returns 0
T2370 000:440.113 JLINK_SetBPEx(Addr = 0x20000000, Type = 0xFFFFFFF2)
T2370 000:440.122 - 0.009ms returns 0x00000003
T2370 000:440.132 JLINK_Go()
T2370 000:440.147   CPU_ReadMem(4 bytes @ 0xE0001000)
T2370 000:446.638 - 6.504ms 
T2370 000:446.666 JLINK_IsHalted()
T2370 000:447.871 - 1.205ms returns FALSE
T2370 000:447.893 JLINK_HasError()
T2370 000:481.426 JLINK_IsHalted()
T2370 000:487.012   CPU_ReadMem(2 bytes @ 0x20000000)
T2370 000:488.245 - 6.819ms returns TRUE
T2370 000:488.268 JLINK_ReadReg(R15 (PC))
T2370 000:488.285 - 0.016ms returns 0x20000000
T2370 000:488.300 JLINK_ClrBPEx(BPHandle = 0x00000003)
T2370 000:488.310 - 0.010ms returns 0x00
T2370 000:488.321 JLINK_ReadReg(R0)
T2370 000:488.331 - 0.009ms returns 0x00000000
T2370 000:489.110 JLINK_HasError()
T2370 000:489.129 JLINK_WriteReg(R0, 0x08001000)
T2370 000:489.141 - 0.011ms returns 0
T2370 000:489.152 JLINK_WriteReg(R1, 0x00001000)
T2370 000:489.161 - 0.009ms returns 0
T2370 000:489.172 JLINK_WriteReg(R2, 0x000000FF)
T2370 000:489.181 - 0.009ms returns 0
T2370 000:489.192 JLINK_WriteReg(R3, 0x00000000)
T2370 000:489.201 - 0.009ms returns 0
T2370 000:489.211 JLINK_WriteReg(R4, 0x00000000)
T2370 000:489.300 - 0.088ms returns 0
T2370 000:489.317 JLINK_WriteReg(R5, 0x00000000)
T2370 000:489.327 - 0.009ms returns 0
T2370 000:489.337 JLINK_WriteReg(R6, 0x00000000)
T2370 000:489.346 - 0.009ms returns 0
T2370 000:489.357 JLINK_WriteReg(R7, 0x00000000)
T2370 000:489.366 - 0.008ms returns 0
T2370 000:489.406 JLINK_WriteReg(R8, 0x00000000)
T2370 000:489.418 - 0.011ms returns 0
T2370 000:489.437 JLINK_WriteReg(R9, 0x20000108)
T2370 000:489.447 - 0.009ms returns 0
T2370 000:489.458 JLINK_WriteReg(R10, 0x00000000)
T2370 000:489.468 - 0.009ms returns 0
T2370 000:489.479 JLINK_WriteReg(R11, 0x00000000)
T2370 000:489.488 - 0.009ms returns 0
T2370 000:489.499 JLINK_WriteReg(R12, 0x00000000)
T2370 000:489.509 - 0.009ms returns 0
T2370 000:489.520 JLINK_WriteReg(R13 (SP), 0x20002000)
T2370 000:489.530 - 0.010ms returns 0
T2370 000:489.542 JLINK_WriteReg(R14, 0x20000001)
T2370 000:489.551 - 0.009ms returns 0
T2370 000:489.562 JLINK_WriteReg(R15 (PC), 0x20000020)
T2370 000:489.572 - 0.009ms returns 0
T2370 000:489.583 JLINK_WriteReg(XPSR, 0x01000000)
T2370 000:489.593 - 0.009ms returns 0
T2370 000:489.604 JLINK_WriteReg(MSP, 0x20002000)
T2370 000:489.614 - 0.009ms returns 0
T2370 000:489.625 JLINK_WriteReg(PSP, 0x20002000)
T2370 000:489.634 - 0.009ms returns 0
T2370 000:489.653 JLINK_WriteReg(CFBP, 0x00000000)
T2370 000:489.662 - 0.009ms returns 0
T2370 000:489.673 JLINK_SetBPEx(Addr = 0x20000000, Type = 0xFFFFFFF2)
T2370 000:489.684 - 0.010ms returns 0x00000004
T2370 000:489.694 JLINK_Go()
T2370 000:489.712   CPU_ReadMem(4 bytes @ 0xE0001000)
T2370 000:496.610 - 6.915ms 
T2370 000:496.631 JLINK_IsHalted()
T2370 000:502.503   CPU_ReadMem(2 bytes @ 0x20000000)
T2370 000:503.618 - 6.986ms returns TRUE
T2370 000:503.653 JLINK_ReadReg(R15 (PC))
T2370 000:503.670 - 0.016ms returns 0x20000000
T2370 000:503.682 JLINK_ClrBPEx(BPHandle = 0x00000004)
T2370 000:503.692 - 0.009ms returns 0x00
T2370 000:503.827 JLINK_ReadReg(R0)
T2370 000:503.855 - 0.027ms returns 0x00000001
T2370 000:503.871 JLINK_HasError()
T2370 000:503.886 JLINK_WriteReg(R0, 0x08001000)
T2370 000:503.896 - 0.010ms returns 0
T2370 000:503.907 JLINK_WriteReg(R1, 0x00001000)
T2370 000:503.916 - 0.009ms returns 0
T2370 000:503.927 JLINK_WriteReg(R2, 0x000000FF)
T2370 000:503.936 - 0.009ms returns 0
T2370 000:503.946 JLINK_WriteReg(R3, 0x00000000)
T2370 000:503.955 - 0.009ms returns 0
T2370 000:503.966 JLINK_WriteReg(R4, 0x00000000)
T2370 000:503.975 - 0.008ms returns 0
T2370 000:503.985 JLINK_WriteReg(R5, 0x00000000)
T2370 000:503.994 - 0.009ms returns 0
T2370 000:504.005 JLINK_WriteReg(R6, 0x00000000)
T2370 000:504.014 - 0.009ms returns 0
T2370 000:504.025 JLINK_WriteReg(R7, 0x00000000)
T2370 000:504.034 - 0.008ms returns 0
T2370 000:504.044 JLINK_WriteReg(R8, 0x00000000)
T2370 000:504.053 - 0.009ms returns 0
T2370 000:504.064 JLINK_WriteReg(R9, 0x20000108)
T2370 000:504.073 - 0.009ms returns 0
T2370 000:504.083 JLINK_WriteReg(R10, 0x00000000)
T2370 000:504.092 - 0.009ms returns 0
T2370 000:504.103 JLINK_WriteReg(R11, 0x00000000)
T2370 000:504.112 - 0.008ms returns 0
T2370 000:504.122 JLINK_WriteReg(R12, 0x00000000)
T2370 000:504.131 - 0.008ms returns 0
T2370 000:504.142 JLINK_WriteReg(R13 (SP), 0x20002000)
T2370 000:504.151 - 0.009ms returns 0
T2370 000:504.162 JLINK_WriteReg(R14, 0x20000001)
T2370 000:504.171 - 0.009ms returns 0
T2370 000:504.181 JLINK_WriteReg(R15 (PC), 0x2000003C)
T2370 000:504.190 - 0.009ms returns 0
T2370 000:504.201 JLINK_WriteReg(XPSR, 0x01000000)
T2370 000:504.210 - 0.009ms returns 0
T2370 000:504.220 JLINK_WriteReg(MSP, 0x20002000)
T2370 000:504.229 - 0.008ms returns 0
T2370 000:504.240 JLINK_WriteReg(PSP, 0x20002000)
T2370 000:504.248 - 0.008ms returns 0
T2370 000:504.259 JLINK_WriteReg(CFBP, 0x00000000)
T2370 000:504.268 - 0.009ms returns 0
T2370 000:504.279 JLINK_SetBPEx(Addr = 0x20000000, Type = 0xFFFFFFF2)
T2370 000:504.289 - 0.009ms returns 0x00000005
T2370 000:504.299 JLINK_Go()
T2370 000:504.314   CPU_ReadMem(4 bytes @ 0xE0001000)
T2370 000:510.894 - 6.593ms 
T2370 000:510.943 JLINK_IsHalted()
T2370 000:511.997 - 1.053ms returns FALSE
T2370 000:512.032 JLINK_HasError()
T2370 000:514.124 JLINK_IsHalted()
T2370 000:515.319 - 1.194ms returns FALSE
T2370 000:515.357 JLINK_HasError()
T2370 000:517.127 JLINK_IsHalted()
T2370 000:518.246 - 1.118ms returns FALSE
T2370 000:518.274 JLINK_HasError()
T2370 000:520.129 JLINK_IsHalted()
T2370 000:521.402 - 1.272ms returns FALSE
T2370 000:521.431 JLINK_HasError()
T2370 000:523.120 JLINK_IsHalted()
T2370 000:524.399 - 1.278ms returns FALSE
T2370 000:524.427 JLINK_HasError()
T2370 000:526.128 JLINK_IsHalted()
T2370 000:527.387 - 1.258ms returns FALSE
T2370 000:527.415 JLINK_HasError()
T2370 000:529.432 JLINK_IsHalted()
T2370 000:530.418 - 0.985ms returns FALSE
T2370 000:530.447 JLINK_HasError()
T2370 000:532.430 JLINK_IsHalted()
T2370 000:533.381 - 0.951ms returns FALSE
T2370 000:533.402 JLINK_HasError()
T2370 000:534.742 JLINK_IsHalted()
T2370 000:535.735 - 0.992ms returns FALSE
T2370 000:535.756 JLINK_HasError()
T2370 000:537.753 JLINK_IsHalted()
T2370 000:539.014 - 1.261ms returns FALSE
T2370 000:539.042 JLINK_HasError()
T2370 000:540.751 JLINK_IsHalted()
T2370 000:542.015 - 1.263ms returns FALSE
T2370 000:542.043 JLINK_HasError()
T2370 000:543.766 JLINK_IsHalted()
T2370 000:549.645   CPU_ReadMem(2 bytes @ 0x20000000)
T2370 000:550.860 - 7.094ms returns TRUE
T2370 000:550.888 JLINK_ReadReg(R15 (PC))
T2370 000:550.902 - 0.013ms returns 0x20000000
T2370 000:550.914 JLINK_ClrBPEx(BPHandle = 0x00000005)
T2370 000:550.923 - 0.009ms returns 0x00
T2370 000:550.934 JLINK_ReadReg(R0)
T2370 000:550.944 - 0.009ms returns 0x00000000
T2370 000:551.801 JLINK_HasError()
T2370 000:551.820 JLINK_WriteReg(R0, 0x08002000)
T2370 000:551.832 - 0.011ms returns 0
T2370 000:551.842 JLINK_WriteReg(R1, 0x00001000)
T2370 000:551.852 - 0.009ms returns 0
T2370 000:551.862 JLINK_WriteReg(R2, 0x000000FF)
T2370 000:551.871 - 0.009ms returns 0
T2370 000:551.882 JLINK_WriteReg(R3, 0x00000000)
T2370 000:551.891 - 0.009ms returns 0
T2370 000:551.902 JLINK_WriteReg(R4, 0x00000000)
T2370 000:551.911 - 0.008ms returns 0
T2370 000:551.921 JLINK_WriteReg(R5, 0x00000000)
T2370 000:551.930 - 0.009ms returns 0
T2370 000:551.941 JLINK_WriteReg(R6, 0x00000000)
T2370 000:551.950 - 0.009ms returns 0
T2370 000:551.960 JLINK_WriteReg(R7, 0x00000000)
T2370 000:551.969 - 0.008ms returns 0
T2370 000:551.980 JLINK_WriteReg(R8, 0x00000000)
T2370 000:551.989 - 0.008ms returns 0
T2370 000:551.999 JLINK_WriteReg(R9, 0x20000108)
T2370 000:552.008 - 0.008ms returns 0
T2370 000:552.019 JLINK_WriteReg(R10, 0x00000000)
T2370 000:552.028 - 0.009ms returns 0
T2370 000:552.038 JLINK_WriteReg(R11, 0x00000000)
T2370 000:552.047 - 0.008ms returns 0
T2370 000:552.058 JLINK_WriteReg(R12, 0x00000000)
T2370 000:552.067 - 0.009ms returns 0
T2370 000:552.077 JLINK_WriteReg(R13 (SP), 0x20002000)
T2370 000:552.087 - 0.009ms returns 0
T2370 000:552.097 JLINK_WriteReg(R14, 0x20000001)
T2370 000:552.106 - 0.009ms returns 0
T2370 000:552.117 JLINK_WriteReg(R15 (PC), 0x20000020)
T2370 000:552.126 - 0.009ms returns 0
T2370 000:552.137 JLINK_WriteReg(XPSR, 0x01000000)
T2370 000:552.146 - 0.009ms returns 0
T2370 000:552.156 JLINK_WriteReg(MSP, 0x20002000)
T2370 000:552.165 - 0.009ms returns 0
T2370 000:552.176 JLINK_WriteReg(PSP, 0x20002000)
T2370 000:552.185 - 0.009ms returns 0
T2370 000:552.195 JLINK_WriteReg(CFBP, 0x00000000)
T2370 000:552.204 - 0.009ms returns 0
T2370 000:552.215 JLINK_SetBPEx(Addr = 0x20000000, Type = 0xFFFFFFF2)
T2370 000:552.226 - 0.010ms returns 0x00000006
T2370 000:552.236 JLINK_Go()
T2370 000:552.253   CPU_ReadMem(4 bytes @ 0xE0001000)
T2370 000:558.989 - 6.752ms 
T2370 000:559.025 JLINK_IsHalted()
T2370 000:564.789   CPU_ReadMem(2 bytes @ 0x20000000)
T2370 000:565.960 - 6.934ms returns TRUE
T2370 000:565.992 JLINK_ReadReg(R15 (PC))
T2370 000:566.006 - 0.013ms returns 0x20000000
T2370 000:566.021 JLINK_ClrBPEx(BPHandle = 0x00000006)
T2370 000:566.032 - 0.010ms returns 0x00
T2370 000:566.053 JLINK_ReadReg(R0)
T2370 000:566.069 - 0.015ms returns 0x00000001
T2370 000:566.084 JLINK_HasError()
T2370 000:566.172 JLINK_WriteReg(R0, 0x08002000)
T2370 000:566.201 - 0.029ms returns 0
T2370 000:566.217 JLINK_WriteReg(R1, 0x00001000)
T2370 000:566.231 - 0.013ms returns 0
T2370 000:566.244 JLINK_WriteReg(R2, 0x000000FF)
T2370 000:566.253 - 0.009ms returns 0
T2370 000:566.264 JLINK_WriteReg(R3, 0x00000000)
T2370 000:566.273 - 0.009ms returns 0
T2370 000:566.284 JLINK_WriteReg(R4, 0x00000000)
T2370 000:566.293 - 0.009ms returns 0
T2370 000:566.304 JLINK_WriteReg(R5, 0x00000000)
T2370 000:566.313 - 0.009ms returns 0
T2370 000:566.324 JLINK_WriteReg(R6, 0x00000000)
T2370 000:566.334 - 0.009ms returns 0
T2370 000:566.345 JLINK_WriteReg(R7, 0x00000000)
T2370 000:566.354 - 0.009ms returns 0
T2370 000:566.365 JLINK_WriteReg(R8, 0x00000000)
T2370 000:566.374 - 0.009ms returns 0
T2370 000:566.385 JLINK_WriteReg(R9, 0x20000108)
T2370 000:566.394 - 0.009ms returns 0
T2370 000:566.405 JLINK_WriteReg(R10, 0x00000000)
T2370 000:566.414 - 0.009ms returns 0
T2370 000:566.425 JLINK_WriteReg(R11, 0x00000000)
T2370 000:566.435 - 0.009ms returns 0
T2370 000:566.446 JLINK_WriteReg(R12, 0x00000000)
T2370 000:566.455 - 0.009ms returns 0
T2370 000:566.466 JLINK_WriteReg(R13 (SP), 0x20002000)
T2370 000:566.476 - 0.009ms returns 0
T2370 000:566.486 JLINK_WriteReg(R14, 0x20000001)
T2370 000:566.496 - 0.009ms returns 0
T2370 000:566.507 JLINK_WriteReg(R15 (PC), 0x2000003C)
T2370 000:566.516 - 0.009ms returns 0
T2370 000:566.527 JLINK_WriteReg(XPSR, 0x01000000)
T2370 000:566.536 - 0.009ms returns 0
T2370 000:566.547 JLINK_WriteReg(MSP, 0x20002000)
T2370 000:566.557 - 0.009ms returns 0
T2370 000:566.567 JLINK_WriteReg(PSP, 0x20002000)
T2370 000:566.576 - 0.009ms returns 0
T2370 000:566.587 JLINK_WriteReg(CFBP, 0x00000000)
T2370 000:566.597 - 0.009ms returns 0
T2370 000:566.608 JLINK_SetBPEx(Addr = 0x20000000, Type = 0xFFFFFFF2)
T2370 000:566.619 - 0.010ms returns 0x00000007
T2370 000:566.629 JLINK_Go()
T2370 000:566.645   CPU_ReadMem(4 bytes @ 0xE0001000)
T2370 000:573.893 - 7.262ms 
T2370 000:573.920 JLINK_IsHalted()
T2370 000:575.138 - 1.217ms returns FALSE
T2370 000:575.166 JLINK_HasError()
T2370 000:576.747 JLINK_IsHalted()
T2370 000:577.887 - 1.138ms returns FALSE
T2370 000:577.925 JLINK_HasError()
T2370 000:579.745 JLINK_IsHalted()
T2370 000:580.843 - 1.096ms returns FALSE
T2370 000:580.871 JLINK_HasError()
T2370 000:582.669 JLINK_IsHalted()
T2370 000:583.834 - 1.163ms returns FALSE
T2370 000:583.862 JLINK_HasError()
T2370 000:587.746 JLINK_IsHalted()
T2370 000:588.867 - 1.121ms returns FALSE
T2370 000:588.895 JLINK_HasError()
T2370 000:590.745 JLINK_IsHalted()
T2370 000:591.863 - 1.117ms returns FALSE
T2370 000:591.896 JLINK_HasError()
T2370 000:593.792 JLINK_IsHalted()
T2370 000:595.000 - 1.207ms returns FALSE
T2370 000:595.038 JLINK_HasError()
T2370 000:596.426 JLINK_IsHalted()
T2370 000:597.404 - 0.978ms returns FALSE
T2370 000:597.434 JLINK_HasError()
T2370 000:599.426 JLINK_IsHalted()
T2370 000:600.407 - 0.980ms returns FALSE
T2370 000:600.444 JLINK_HasError()
T2370 000:602.407 JLINK_IsHalted()
T2370 000:603.608 - 1.199ms returns FALSE
T2370 000:603.635 JLINK_HasError()
T2370 000:605.407 JLINK_IsHalted()
T2370 000:606.638 - 1.231ms returns FALSE
T2370 000:606.666 JLINK_HasError()
T2370 000:608.425 JLINK_IsHalted()
T2370 000:614.035   CPU_ReadMem(2 bytes @ 0x20000000)
T2370 000:615.142 - 6.716ms returns TRUE
T2370 000:615.171 JLINK_ReadReg(R15 (PC))
T2370 000:615.188 - 0.017ms returns 0x20000000
T2370 000:615.201 JLINK_ClrBPEx(BPHandle = 0x00000007)
T2370 000:615.211 - 0.010ms returns 0x00
T2370 000:615.222 JLINK_ReadReg(R0)
T2370 000:615.232 - 0.009ms returns 0x00000000
T2370 000:616.056 JLINK_HasError()
T2370 000:616.075 JLINK_WriteReg(R0, 0x08003000)
T2370 000:616.086 - 0.011ms returns 0
T2370 000:616.097 JLINK_WriteReg(R1, 0x00001000)
T2370 000:616.106 - 0.009ms returns 0
T2370 000:616.117 JLINK_WriteReg(R2, 0x000000FF)
T2370 000:616.132 - 0.015ms returns 0
T2370 000:616.147 JLINK_WriteReg(R3, 0x00000000)
T2370 000:616.157 - 0.009ms returns 0
T2370 000:616.167 JLINK_WriteReg(R4, 0x00000000)
T2370 000:616.176 - 0.009ms returns 0
T2370 000:616.187 JLINK_WriteReg(R5, 0x00000000)
T2370 000:616.196 - 0.009ms returns 0
T2370 000:616.206 JLINK_WriteReg(R6, 0x00000000)
T2370 000:616.215 - 0.009ms returns 0
T2370 000:616.226 JLINK_WriteReg(R7, 0x00000000)
T2370 000:616.235 - 0.008ms returns 0
T2370 000:616.245 JLINK_WriteReg(R8, 0x00000000)
T2370 000:616.254 - 0.008ms returns 0
T2370 000:616.265 JLINK_WriteReg(R9, 0x20000108)
T2370 000:616.274 - 0.009ms returns 0
T2370 000:616.284 JLINK_WriteReg(R10, 0x00000000)
T2370 000:616.293 - 0.009ms returns 0
T2370 000:616.304 JLINK_WriteReg(R11, 0x00000000)
T2370 000:616.313 - 0.008ms returns 0
T2370 000:616.323 JLINK_WriteReg(R12, 0x00000000)
T2370 000:616.332 - 0.009ms returns 0
T2370 000:616.343 JLINK_WriteReg(R13 (SP), 0x20002000)
T2370 000:616.352 - 0.009ms returns 0
T2370 000:616.363 JLINK_WriteReg(R14, 0x20000001)
T2370 000:616.372 - 0.009ms returns 0
T2370 000:616.382 JLINK_WriteReg(R15 (PC), 0x20000020)
T2370 000:616.391 - 0.009ms returns 0
T2370 000:616.402 JLINK_WriteReg(XPSR, 0x01000000)
T2370 000:616.411 - 0.009ms returns 0
T2370 000:616.421 JLINK_WriteReg(MSP, 0x20002000)
T2370 000:616.430 - 0.008ms returns 0
T2370 000:616.441 JLINK_WriteReg(PSP, 0x20002000)
T2370 000:616.449 - 0.008ms returns 0
T2370 000:616.460 JLINK_WriteReg(CFBP, 0x00000000)
T2370 000:616.469 - 0.008ms returns 0
T2370 000:616.480 JLINK_SetBPEx(Addr = 0x20000000, Type = 0xFFFFFFF2)
T2370 000:616.490 - 0.010ms returns 0x00000008
T2370 000:616.500 JLINK_Go()
T2370 000:616.518   CPU_ReadMem(4 bytes @ 0xE0001000)
T2370 000:623.217 - 6.716ms 
T2370 000:623.243 JLINK_IsHalted()
T2370 000:629.015   CPU_ReadMem(2 bytes @ 0x20000000)
T2370 000:630.211 - 6.968ms returns TRUE
T2370 000:630.235 JLINK_ReadReg(R15 (PC))
T2370 000:630.248 - 0.012ms returns 0x20000000
T2370 000:630.259 JLINK_ClrBPEx(BPHandle = 0x00000008)
T2370 000:630.269 - 0.009ms returns 0x00
T2370 000:630.335 JLINK_ReadReg(R0)
T2370 000:630.352 - 0.016ms returns 0x00000001
T2370 000:630.364 JLINK_HasError()
T2370 000:630.375 JLINK_WriteReg(R0, 0x08003000)
T2370 000:630.386 - 0.010ms returns 0
T2370 000:630.396 JLINK_WriteReg(R1, 0x00001000)
T2370 000:630.406 - 0.009ms returns 0
T2370 000:630.417 JLINK_WriteReg(R2, 0x000000FF)
T2370 000:630.426 - 0.009ms returns 0
T2370 000:630.437 JLINK_WriteReg(R3, 0x00000000)
T2370 000:630.446 - 0.009ms returns 0
T2370 000:630.457 JLINK_WriteReg(R4, 0x00000000)
T2370 000:630.467 - 0.009ms returns 0
T2370 000:630.478 JLINK_WriteReg(R5, 0x00000000)
T2370 000:630.487 - 0.009ms returns 0
T2370 000:630.498 JLINK_WriteReg(R6, 0x00000000)
T2370 000:630.507 - 0.009ms returns 0
T2370 000:630.518 JLINK_WriteReg(R7, 0x00000000)
T2370 000:630.527 - 0.009ms returns 0
T2370 000:630.538 JLINK_WriteReg(R8, 0x00000000)
T2370 000:630.547 - 0.009ms returns 0
T2370 000:630.558 JLINK_WriteReg(R9, 0x20000108)
T2370 000:630.568 - 0.009ms returns 0
T2370 000:630.579 JLINK_WriteReg(R10, 0x00000000)
T2370 000:630.588 - 0.009ms returns 0
T2370 000:630.599 JLINK_WriteReg(R11, 0x00000000)
T2370 000:630.608 - 0.009ms returns 0
T2370 000:630.619 JLINK_WriteReg(R12, 0x00000000)
T2370 000:630.629 - 0.009ms returns 0
T2370 000:630.639 JLINK_WriteReg(R13 (SP), 0x20002000)
T2370 000:630.649 - 0.009ms returns 0
T2370 000:630.660 JLINK_WriteReg(R14, 0x20000001)
T2370 000:630.669 - 0.009ms returns 0
T2370 000:630.680 JLINK_WriteReg(R15 (PC), 0x2000003C)
T2370 000:630.690 - 0.009ms returns 0
T2370 000:630.701 JLINK_WriteReg(XPSR, 0x01000000)
T2370 000:630.710 - 0.009ms returns 0
T2370 000:630.721 JLINK_WriteReg(MSP, 0x20002000)
T2370 000:630.730 - 0.009ms returns 0
T2370 000:630.741 JLINK_WriteReg(PSP, 0x20002000)
T2370 000:630.750 - 0.009ms returns 0
T2370 000:630.761 JLINK_WriteReg(CFBP, 0x00000000)
T2370 000:630.770 - 0.009ms returns 0
T2370 000:630.782 JLINK_SetBPEx(Addr = 0x20000000, Type = 0xFFFFFFF2)
T2370 000:630.796 - 0.014ms returns 0x00000009
T2370 000:630.810 JLINK_Go()
T2370 000:630.825   CPU_ReadMem(4 bytes @ 0xE0001000)
T2370 000:637.265 - 6.454ms 
T2370 000:637.295 JLINK_IsHalted()
T2370 000:638.513 - 1.217ms returns FALSE
T2370 000:638.541 JLINK_HasError()
T2370 000:643.633 JLINK_IsHalted()
T2370 000:644.916 - 1.282ms returns FALSE
T2370 000:644.944 JLINK_HasError()
T2370 000:646.625 JLINK_IsHalted()
T2370 000:647.850 - 1.225ms returns FALSE
T2370 000:647.878 JLINK_HasError()
T2370 000:649.889 JLINK_IsHalted()
T2370 000:651.055 - 1.165ms returns FALSE
T2370 000:651.094 JLINK_HasError()
T2370 000:652.261 JLINK_IsHalted()
T2370 000:653.504 - 1.243ms returns FALSE
T2370 000:653.525 JLINK_HasError()
T2370 000:657.252 JLINK_IsHalted()
T2370 000:658.348 - 1.096ms returns FALSE
T2370 000:658.369 JLINK_HasError()
T2370 000:660.248 JLINK_IsHalted()
T2370 000:661.445 - 1.196ms returns FALSE
T2370 000:661.466 JLINK_HasError()
T2370 000:665.233 JLINK_IsHalted()
T2370 000:666.213 - 0.979ms returns FALSE
T2370 000:666.234 JLINK_HasError()
T2370 000:668.263 JLINK_IsHalted()
T2370 000:669.504 - 1.240ms returns FALSE
T2370 000:669.524 JLINK_HasError()
T2370 000:673.904 JLINK_IsHalted()
T2370 000:679.660   CPU_ReadMem(2 bytes @ 0x20000000)
T2370 000:680.898 - 6.993ms returns TRUE
T2370 000:680.932 JLINK_ReadReg(R15 (PC))
T2370 000:680.949 - 0.016ms returns 0x20000000
T2370 000:680.961 JLINK_ClrBPEx(BPHandle = 0x00000009)
T2370 000:680.971 - 0.009ms returns 0x00
T2370 000:681.102 JLINK_ReadReg(R0)
T2370 000:681.130 - 0.028ms returns 0x00000000
T2370 000:681.899 JLINK_HasError()
T2370 000:681.918 JLINK_WriteReg(R0, 0x08004000)
T2370 000:681.929 - 0.011ms returns 0
T2370 000:681.940 JLINK_WriteReg(R1, 0x00001000)
T2370 000:681.950 - 0.009ms returns 0
T2370 000:681.960 JLINK_WriteReg(R2, 0x000000FF)
T2370 000:681.969 - 0.009ms returns 0
T2370 000:681.980 JLINK_WriteReg(R3, 0x00000000)
T2370 000:681.989 - 0.009ms returns 0
T2370 000:682.035 JLINK_WriteReg(R4, 0x00000000)
T2370 000:682.045 - 0.009ms returns 0
T2370 000:682.064 JLINK_WriteReg(R5, 0x00000000)
T2370 000:682.073 - 0.009ms returns 0
T2370 000:682.084 JLINK_WriteReg(R6, 0x00000000)
T2370 000:682.094 - 0.009ms returns 0
T2370 000:682.113 JLINK_WriteReg(R7, 0x00000000)
T2370 000:682.123 - 0.009ms returns 0
T2370 000:682.155 JLINK_WriteReg(R8, 0x00000000)
T2370 000:682.184 - 0.029ms returns 0
T2370 000:682.197 JLINK_WriteReg(R9, 0x20000108)
T2370 000:682.207 - 0.010ms returns 0
T2370 000:682.219 JLINK_WriteReg(R10, 0x00000000)
T2370 000:682.229 - 0.010ms returns 0
T2370 000:682.248 JLINK_WriteReg(R11, 0x00000000)
T2370 000:682.258 - 0.009ms returns 0
T2370 000:682.269 JLINK_WriteReg(R12, 0x00000000)
T2370 000:682.280 - 0.011ms returns 0
T2370 000:682.300 JLINK_WriteReg(R13 (SP), 0x20002000)
T2370 000:682.309 - 0.009ms returns 0
T2370 000:682.320 JLINK_WriteReg(R14, 0x20000001)
T2370 000:682.329 - 0.009ms returns 0
T2370 000:682.340 JLINK_WriteReg(R15 (PC), 0x20000020)
T2370 000:682.358 - 0.017ms returns 0
T2370 000:682.369 JLINK_WriteReg(XPSR, 0x01000000)
T2370 000:682.378 - 0.009ms returns 0
T2370 000:682.397 JLINK_WriteReg(MSP, 0x20002000)
T2370 000:682.406 - 0.009ms returns 0
T2370 000:682.417 JLINK_WriteReg(PSP, 0x20002000)
T2370 000:682.426 - 0.009ms returns 0
T2370 000:682.436 JLINK_WriteReg(CFBP, 0x00000000)
T2370 000:682.445 - 0.009ms returns 0
T2370 000:682.457 JLINK_SetBPEx(Addr = 0x20000000, Type = 0xFFFFFFF2)
T2370 000:682.468 - 0.011ms returns 0x0000000A
T2370 000:682.478 JLINK_Go()
T2370 000:682.495   CPU_ReadMem(4 bytes @ 0xE0001000)
T2370 000:689.267 - 6.787ms 
T2370 000:689.295 JLINK_IsHalted()
T2370 000:695.125   CPU_ReadMem(2 bytes @ 0x20000000)
T2370 000:696.390 - 7.094ms returns TRUE
T2370 000:696.418 JLINK_ReadReg(R15 (PC))
T2370 000:696.434 - 0.015ms returns 0x20000000
T2370 000:696.447 JLINK_ClrBPEx(BPHandle = 0x0000000A)
T2370 000:696.457 - 0.009ms returns 0x00
T2370 000:696.468 JLINK_ReadReg(R0)
T2370 000:696.477 - 0.009ms returns 0x00000001
T2370 000:696.495 JLINK_HasError()
T2370 000:696.511 JLINK_WriteReg(R0, 0x08004000)
T2370 000:696.521 - 0.009ms returns 0
T2370 000:696.531 JLINK_WriteReg(R1, 0x00001000)
T2370 000:696.540 - 0.008ms returns 0
T2370 000:696.551 JLINK_WriteReg(R2, 0x000000FF)
T2370 000:696.560 - 0.009ms returns 0
T2370 000:696.570 JLINK_WriteReg(R3, 0x00000000)
T2370 000:696.579 - 0.008ms returns 0
T2370 000:696.590 JLINK_WriteReg(R4, 0x00000000)
T2370 000:696.599 - 0.009ms returns 0
T2370 000:696.609 JLINK_WriteReg(R5, 0x00000000)
T2370 000:696.618 - 0.008ms returns 0
T2370 000:696.628 JLINK_WriteReg(R6, 0x00000000)
T2370 000:696.637 - 0.008ms returns 0
T2370 000:696.648 JLINK_WriteReg(R7, 0x00000000)
T2370 000:696.657 - 0.008ms returns 0
T2370 000:696.667 JLINK_WriteReg(R8, 0x00000000)
T2370 000:696.676 - 0.008ms returns 0
T2370 000:696.687 JLINK_WriteReg(R9, 0x20000108)
T2370 000:696.696 - 0.008ms returns 0
T2370 000:696.729 JLINK_WriteReg(R10, 0x00000000)
T2370 000:696.738 - 0.009ms returns 0
T2370 000:696.749 JLINK_WriteReg(R11, 0x00000000)
T2370 000:696.757 - 0.008ms returns 0
T2370 000:696.768 JLINK_WriteReg(R12, 0x00000000)
T2370 000:696.777 - 0.009ms returns 0
T2370 000:696.788 JLINK_WriteReg(R13 (SP), 0x20002000)
T2370 000:696.797 - 0.009ms returns 0
T2370 000:696.807 JLINK_WriteReg(R14, 0x20000001)
T2370 000:696.816 - 0.008ms returns 0
T2370 000:696.827 JLINK_WriteReg(R15 (PC), 0x2000003C)
T2370 000:696.836 - 0.009ms returns 0
T2370 000:696.846 JLINK_WriteReg(XPSR, 0x01000000)
T2370 000:696.855 - 0.008ms returns 0
T2370 000:696.865 JLINK_WriteReg(MSP, 0x20002000)
T2370 000:696.874 - 0.008ms returns 0
T2370 000:696.884 JLINK_WriteReg(PSP, 0x20002000)
T2370 000:696.893 - 0.008ms returns 0
T2370 000:696.904 JLINK_WriteReg(CFBP, 0x00000000)
T2370 000:696.913 - 0.008ms returns 0
T2370 000:696.923 JLINK_SetBPEx(Addr = 0x20000000, Type = 0xFFFFFFF2)
T2370 000:696.933 - 0.010ms returns 0x0000000B
T2370 000:696.943 JLINK_Go()
T2370 000:696.958   CPU_ReadMem(4 bytes @ 0xE0001000)
T2370 000:703.743 - 6.798ms 
T2370 000:703.772 JLINK_IsHalted()
T2370 000:705.013 - 1.240ms returns FALSE
T2370 000:705.041 JLINK_HasError()
T2370 000:710.799 JLINK_IsHalted()
T2370 000:711.991 - 1.191ms returns FALSE
T2370 000:712.019 JLINK_HasError()
T2370 000:713.427 JLINK_IsHalted()
T2370 000:714.638 - 1.211ms returns FALSE
T2370 000:714.666 JLINK_HasError()
T2370 000:716.405 JLINK_IsHalted()
T2370 000:717.607 - 1.201ms returns FALSE
T2370 000:717.635 JLINK_HasError()
T2370 000:719.410 JLINK_IsHalted()
T2370 000:720.641 - 1.230ms returns FALSE
T2370 000:720.669 JLINK_HasError()
T2370 000:722.408 JLINK_IsHalted()
T2370 000:723.638 - 1.229ms returns FALSE
T2370 000:723.666 JLINK_HasError()
T2370 000:725.406 JLINK_IsHalted()
T2370 000:726.482 - 1.075ms returns FALSE
T2370 000:726.510 JLINK_HasError()
T2370 000:728.428 JLINK_IsHalted()
T2370 000:729.340 - 0.911ms returns FALSE
T2370 000:729.368 JLINK_HasError()
T2370 000:731.409 JLINK_IsHalted()
T2370 000:732.605 - 1.195ms returns FALSE
T2370 000:732.639 JLINK_HasError()
T2370 000:734.682 JLINK_IsHalted()
T2370 000:735.888 - 1.205ms returns FALSE
T2370 000:735.920 JLINK_HasError()
T2370 000:737.996 JLINK_IsHalted()
T2370 000:743.907   CPU_ReadMem(2 bytes @ 0x20000000)
T2370 000:745.010 - 7.013ms returns TRUE
T2370 000:745.039 JLINK_ReadReg(R15 (PC))
T2370 000:745.081 - 0.042ms returns 0x20000000
T2370 000:745.094 JLINK_ClrBPEx(BPHandle = 0x0000000B)
T2370 000:745.104 - 0.009ms returns 0x00
T2370 000:745.114 JLINK_ReadReg(R0)
T2370 000:745.124 - 0.009ms returns 0x00000000
T2370 000:745.588 JLINK_HasError()
T2370 000:745.607 JLINK_WriteReg(R0, 0x00000001)
T2370 000:745.618 - 0.011ms returns 0
T2370 000:745.629 JLINK_WriteReg(R1, 0x00001000)
T2370 000:745.639 - 0.009ms returns 0
T2370 000:745.649 JLINK_WriteReg(R2, 0x000000FF)
T2370 000:745.658 - 0.009ms returns 0
T2370 000:745.669 JLINK_WriteReg(R3, 0x00000000)
T2370 000:745.678 - 0.009ms returns 0
T2370 000:745.689 JLINK_WriteReg(R4, 0x00000000)
T2370 000:745.698 - 0.009ms returns 0
T2370 000:745.719 JLINK_WriteReg(R5, 0x00000000)
T2370 000:745.728 - 0.009ms returns 0
T2370 000:745.739 JLINK_WriteReg(R6, 0x00000000)
T2370 000:745.748 - 0.009ms returns 0
T2370 000:745.759 JLINK_WriteReg(R7, 0x00000000)
T2370 000:745.768 - 0.008ms returns 0
T2370 000:745.778 JLINK_WriteReg(R8, 0x00000000)
T2370 000:745.787 - 0.009ms returns 0
T2370 000:745.798 JLINK_WriteReg(R9, 0x20000108)
T2370 000:745.807 - 0.008ms returns 0
T2370 000:745.817 JLINK_WriteReg(R10, 0x00000000)
T2370 000:745.827 - 0.009ms returns 0
T2370 000:745.837 JLINK_WriteReg(R11, 0x00000000)
T2370 000:745.846 - 0.009ms returns 0
T2370 000:745.857 JLINK_WriteReg(R12, 0x00000000)
T2370 000:745.866 - 0.009ms returns 0
T2370 000:745.877 JLINK_WriteReg(R13 (SP), 0x20002000)
T2370 000:745.886 - 0.009ms returns 0
T2370 000:745.897 JLINK_WriteReg(R14, 0x20000001)
T2370 000:745.906 - 0.009ms returns 0
T2370 000:745.921 JLINK_WriteReg(R15 (PC), 0x200000F4)
T2370 000:745.931 - 0.009ms returns 0
T2370 000:745.941 JLINK_WriteReg(XPSR, 0x01000000)
T2370 000:745.951 - 0.009ms returns 0
T2370 000:745.961 JLINK_WriteReg(MSP, 0x20002000)
T2370 000:745.970 - 0.009ms returns 0
T2370 000:745.981 JLINK_WriteReg(PSP, 0x20002000)
T2370 000:745.990 - 0.009ms returns 0
T2370 000:746.000 JLINK_WriteReg(CFBP, 0x00000000)
T2370 000:746.010 - 0.009ms returns 0
T2370 000:746.020 JLINK_SetBPEx(Addr = 0x20000000, Type = 0xFFFFFFF2)
T2370 000:746.030 - 0.010ms returns 0x0000000C
T2370 000:746.040 JLINK_Go()
T2370 000:746.057   CPU_ReadMem(4 bytes @ 0xE0001000)
T2370 000:752.701 - 6.660ms 
T2370 000:752.730 JLINK_IsHalted()
T2370 000:758.308   CPU_ReadMem(2 bytes @ 0x20000000)
T2370 000:759.512 - 6.782ms returns TRUE
T2370 000:759.539 JLINK_ReadReg(R15 (PC))
T2370 000:759.555 - 0.016ms returns 0x20000000
T2370 000:759.570 JLINK_ClrBPEx(BPHandle = 0x0000000C)
T2370 000:759.579 - 0.009ms returns 0x00
T2370 000:759.695 JLINK_ReadReg(R0)
T2370 000:759.726 - 0.031ms returns 0x00000000
T2370 000:828.126 JLINK_WriteMem(0x20000000, 0x10C Bytes, ...)
T2370 000:828.151   Data:  00 BE 0A E0 0D 78 2D 06 68 40 08 24 40 00 00 D3 ...
T2370 000:828.181   CPU_WriteMem(268 bytes @ 0x20000000)
T2370 000:831.851 - 3.725ms returns 0x10C
T2370 000:831.922 JLINK_HasError()
T2370 000:831.939 JLINK_WriteReg(R0, 0x08000000)
T2370 000:831.953 - 0.013ms returns 0
T2370 000:831.965 JLINK_WriteReg(R1, 0x00B71B00)
T2370 000:831.976 - 0.010ms returns 0
T2370 000:831.988 JLINK_WriteReg(R2, 0x00000002)
T2370 000:831.998 - 0.010ms returns 0
T2370 000:832.010 JLINK_WriteReg(R3, 0x00000000)
T2370 000:832.020 - 0.010ms returns 0
T2370 000:832.032 JLINK_WriteReg(R4, 0x00000000)
T2370 000:832.043 - 0.010ms returns 0
T2370 000:832.054 JLINK_WriteReg(R5, 0x00000000)
T2370 000:832.064 - 0.010ms returns 0
T2370 000:832.076 JLINK_WriteReg(R6, 0x00000000)
T2370 000:832.086 - 0.010ms returns 0
T2370 000:832.098 JLINK_WriteReg(R7, 0x00000000)
T2370 000:832.109 - 0.010ms returns 0
T2370 000:832.121 JLINK_WriteReg(R8, 0x00000000)
T2370 000:832.131 - 0.010ms returns 0
T2370 000:832.184 JLINK_WriteReg(R9, 0x20000108)
T2370 000:832.195 - 0.011ms returns 0
T2370 000:832.208 JLINK_WriteReg(R10, 0x00000000)
T2370 000:832.218 - 0.010ms returns 0
T2370 000:832.230 JLINK_WriteReg(R11, 0x00000000)
T2370 000:832.241 - 0.010ms returns 0
T2370 000:832.253 JLINK_WriteReg(R12, 0x00000000)
T2370 000:832.263 - 0.010ms returns 0
T2370 000:832.275 JLINK_WriteReg(R13 (SP), 0x20002000)
T2370 000:832.286 - 0.011ms returns 0
T2370 000:832.298 JLINK_WriteReg(R14, 0x20000001)
T2370 000:832.309 - 0.010ms returns 0
T2370 000:832.321 JLINK_WriteReg(R15 (PC), 0x20000038)
T2370 000:832.331 - 0.010ms returns 0
T2370 000:832.343 JLINK_WriteReg(XPSR, 0x01000000)
T2370 000:832.353 - 0.010ms returns 0
T2370 000:832.365 JLINK_WriteReg(MSP, 0x20002000)
T2370 000:832.375 - 0.010ms returns 0
T2370 000:832.387 JLINK_WriteReg(PSP, 0x20002000)
T2370 000:832.398 - 0.010ms returns 0
T2370 000:832.410 JLINK_WriteReg(CFBP, 0x00000000)
T2370 000:832.420 - 0.010ms returns 0
T2370 000:832.439 JLINK_SetBPEx(Addr = 0x20000000, Type = 0xFFFFFFF2)
T2370 000:832.461   CPU_ReadMem(4 bytes @ 0x20000000)
T2370 000:833.397   CPU_WriteMem(4 bytes @ 0x20000000)
T2370 000:834.569   CPU_ReadMem(4 bytes @ 0x20000000)
T2370 000:835.572   CPU_WriteMem(4 bytes @ 0x20000000)
T2370 000:836.575   CPU_ReadMem(2 bytes @ 0x20000000)
T2370 000:837.450 - 5.010ms returns 0x0000000D
T2370 000:837.480 JLINK_Go()
T2370 000:837.500   CPU_WriteMem(2 bytes @ 0x20000000)
T2370 000:838.454   CPU_ReadMem(4 bytes @ 0xE0001000)
T2370 000:844.680 - 7.199ms 
T2370 000:844.719 JLINK_IsHalted()
T2370 000:850.252   CPU_ReadMem(2 bytes @ 0x20000000)
T2370 000:851.217 - 6.496ms returns TRUE
T2370 000:851.257 JLINK_ReadReg(R15 (PC))
T2370 000:851.273 - 0.016ms returns 0x20000000
T2370 000:851.286 JLINK_ClrBPEx(BPHandle = 0x0000000D)
T2370 000:851.298 - 0.011ms returns 0x00
T2370 000:851.438 JLINK_ReadReg(R0)
T2370 000:851.479 - 0.041ms returns 0x00000000
T2370 000:852.017 JLINK_WriteMem(0x2000010C, 0x2F4 Bytes, ...)
T2370 000:852.036   Data:  18 22 00 20 E9 00 00 08 E3 0A 00 08 B9 0A 00 08 ...
T2370 000:852.060   CPU_WriteMem(756 bytes @ 0x2000010C)
T2370 000:859.645 - 7.627ms returns 0x2F4
T2370 000:859.678 JLINK_WriteMem(0x20000400, 0x400 Bytes, ...)
T2370 000:859.692   Data:  0A 51 02 90 40 1A 01 90 40 28 6B DA C3 F3 13 00 ...
T2370 000:859.716   CPU_WriteMem(1024 bytes @ 0x20000400)
T2370 000:869.650 - 9.971ms returns 0x400
T2370 000:869.684 JLINK_WriteMem(0x20000800, 0x400 Bytes, ...)
T2370 000:869.696   Data:  48 46 31 46 2A 46 43 46 BD E8 F0 9F 20 2A 04 DB ...
T2370 000:869.722   CPU_WriteMem(1024 bytes @ 0x20000800)
T2370 000:879.924 - 10.239ms returns 0x400
T2370 000:879.963 JLINK_WriteMem(0x20000C00, 0x400 Bytes, ...)
T2370 000:879.977   Data:  01 22 02 FA 01 F1 02 68 0A 43 02 60 82 68 70 47 ...
T2370 000:880.001   CPU_WriteMem(1024 bytes @ 0x20000C00)
